
T20B8 000:062 SEGGER J-Link V4.62 Log File (0001ms, 0062ms total)
T20B8 000:062 DLL Compiled: Jan 25 2013 15:19:47 (0001ms, 0062ms total)
T20B8 000:062 Logging started @ 2015-11-07 16:13 (0001ms, 0062ms total)
T20B8 000:063 JLINK_SetWarnOutHandler(...) (0000ms, 0062ms total)
T20B8 000:063 JLINK_OpenEx(...)
Firmware: J-Link ARM V8 compiled Nov 25 2013 19:20:08
Hardware: V8.00
S/N: 304427361
Feature(s): RDI,FlashDL,FlashBP,JFlash,GDBFULL  returns O.K. (0025ms, 0087ms total)
T20B8 000:088 JLINK_SetErrorOutHandler(...) (0000ms, 0087ms total)
T20B8 000:088 JLINK_ExecCommand("ProjectFile = "F:\¹¤×÷\Ñ¸ÒÏ\Code\STM32\6.Add wireless on the base of 5\USER\JLinkSettings.ini"", ...)  returns 0x00 (0000ms, 0087ms total)
T20B8 000:097 JLINK_ExecCommand("Device = STM32F103VE", ...)
                JLINK_ExecCommand("map ram 0x20000000 - 0x2000FFFF", ...)  returns 0x00 (0000ms, 0000ms total)
                JLINK_AddMirrorAreaEx(Addr = 0x00000000, Size = 0x00000000) (0000ms, 0000ms total)
              Device "STM32F103VE" selected (512 KB flash, 64 KB RAM).  returns 0x00 (0009ms, 0096ms total)
T20B8 000:106 JLINK_ExecCommand("DisableConnectionTimeout", ...)  returns 0x00 (0000ms, 0096ms total)
T20B8 000:106 JLINK_TIF_Select(JLINKARM_TIF_JTAG)  returns 0x00 (0000ms, 0096ms total)
T20B8 000:106 JLINK_SetSpeed(2000) (0000ms, 0096ms total)
T20B8 000:106 JLINK_GetHardwareVersion()  returns 0x13880 (0000ms, 0096ms total)
T20B8 000:106 JLINK_GetDLLVersion()  returns 46200 (0000ms, 0096ms total)
T20B8 000:106 JLINK_GetFirmwareString(...) (0000ms, 0096ms total)
T20B8 000:112 JLINK_GetDLLVersion()  returns 46200 (0000ms, 0096ms total)
T20B8 000:112 JLINK_GetCompileDateTime() (0000ms, 0096ms total)
T20B8 000:114 JLINK_GetFirmwareString(...) (0000ms, 0096ms total)
T20B8 000:116 JLINK_GetHardwareVersion()  returns 0x13880 (0000ms, 0096ms total)
T20B8 000:122 JLINK_GetIdData(...) >0x2F8 JTAG>TotalIRLen = 9, IRPrint = 0x0011 >0x30 JTAG> >0x210 JTAG> >0x40 JTAG> >0x40 JTAG> >0x40 JTAG> >0x30 JTAG> >0x40 JTAG> >0x40 JTAG> >0x40 JTAG> >0x40 JTAG> >0x40 JTAG> >0x40 JTAG> >0x40 JTAG> >0x40 JTAG> >0x2F8 JTAG>TotalIRLen = 9, IRPrint = 0x0011 >0x30 JTAG> >0x210 JTAG> >0x80 JTAG> >0x40 JTAG> >0x40 JTAG> >0x50 JTAG> >0x40 JTAG> >0x40 JTAG> >0x40 JTAG> >0x50 JTAG> >0x40 JTAG> >0x40 JTAG> >0x40 JTAG> >0x30 JTAG> >0x40 JTAG> >0x50 JTAG> >0x40 JTAG>
 >0x38 JTAG> >0x80 JTAG> >0x40 JTAG> >0x40 JTAG> >0x50 JTAG> >0x40 JTAG> >0x40 JTAG> >0x40 JTAG> >0x50 JTAG> >0x40 JTAG> >0x40 JTAG> >0x30 JTAG> >0x40 JTAG> >0x40 JTAG> >0x40 JTAG> >0x40 JTAG> >0x40 JTAG> >0x50 JTAG> >0x40 JTAG> >0x80 JTAG> >0x40 JTAG> >0x30 JTAG> >0x40 JTAG> >0x40 JTAG> >0x40 JTAG> >0x40 JTAG> >0x40 JTAG> >0x50 JTAG> >0x40 JTAG> >0x80 JTAG> >0x40 JTAG> >0x30 JTAG> >0x40 JTAG> >0x50 JTAG> >0x40 JTAG> >0x40 JTAG> >0x40 JTAG> >0x30 JTAG> >0x40 JTAG> >0x50 JTAG> >0x40 JTAG>
Found Cortex-M3 r1p1, Little endian. >0x50 JTAG> >0x50 JTAG> >0x40 JTAG> >0x40 JTAG> >0x30 JTAG> >0x30 JTAG> >0x50 JTAG> >0x40 JTAG> >0x80 JTAG> >0x40 JTAG> >0x30 JTAG> >0x40 JTAG> >0x50 JTAG> >0x40 JTAG> >0x40 JTAG> >0x40 JTAG> >0x30 JTAG> >0x40 JTAG> >0x50 JTAG> >0x40 JTAG>TPIU fitted. >0x40 JTAG> >0x40 JTAG> >0x30 JTAG> >0x40 JTAG> >0x50 JTAG> >0x40 JTAG>ETM fitted. >0x40 JTAG> >0x40 JTAG> >0x30 JTAG> >0x40 JTAG> >0x50 JTAG> >0x40 JTAG> >0x40 JTAG> >0x40 JTAG> >0x30 JTAG> >0x40 JTAG> >0x50 JTAG>
 >0x40 JTAG>FPUnit: 6 code (BP) slots and 2 literal slots >0x40 JTAG> >0x40 JTAG> >0x30 JTAG> >0x40 JTAG> >0x50 JTAG> >0x40 JTAG> >0x40 JTAG> >0x40 JTAG> >0x30 JTAG> >0x40 JTAG> >0x50 JTAG> >0x40 JTAG> >0x40 JTAG> >0x40 JTAG> >0x30 JTAG> >0x30 JTAG> >0x50 JTAG> >0x40 JTAG> ScanLen=9 NumDevices=2 aId[0]=0x3BA00477 aIrRead[0]=0 aScanLen[0]=0 aScanRead[0]=0 (0148ms, 0244ms total)
T20B8 000:270 JLINK_JTAG_GetDeviceID(DeviceIndex = 0)  returns 0x3BA00477 (0000ms, 0244ms total)
T20B8 000:270 JLINK_JTAG_GetDeviceInfo(DeviceIndex = 0)  returns 0x00 (0000ms, 0244ms total)
T20B8 000:270 JLINK_JTAG_GetDeviceID(DeviceIndex = 1)  returns 0x6414041 (0000ms, 0244ms total)
T20B8 000:270 JLINK_JTAG_GetDeviceInfo(DeviceIndex = 1)  returns 0x00 (0000ms, 0244ms total)
T20B8 000:270 JLINK_GetDeviceFamily()  returns 3 (0000ms, 0244ms total)
T20B8 000:272 JLINK_ReadMem (0xE00FFFF0, 0x0010 Bytes, ...) -- CPU is running -- CPU_ReadMem(16 bytes @ 0xE00FFFF0) -- Data:  0D 00 00 00 10 00 00 00 05 00 00 00 B1 00 00 00  returns 0x00 (0004ms, 0248ms total)
T20B8 000:276 JLINK_ReadMem (0xE00FFFD0, 0x0020 Bytes, ...) -- CPU is running -- CPU_ReadMem(32 bytes @ 0xE00FFFD0) -- Data:  00 00 00 00 00 00 00 00 00 00 00 00 00 00 00 00 ...  returns 0x00 (0001ms, 0249ms total)
T20B8 000:277 JLINK_ReadMem (0xE00FF000, 0x0018 Bytes, ...) -- CPU is running -- CPU_ReadMem(24 bytes @ 0xE00FF000) -- Data:  03 F0 F0 FF 03 20 F0 FF 03 30 F0 FF 03 10 F0 FF ...  returns 0x00 (0001ms, 0250ms total)
T20B8 000:278 JLINK_ReadMemU32(0xE000ED00, 0x0001 Items, ...) -- CPU is running -- CPU_ReadMem(4 bytes @ 0xE000ED00) -- Data:  31 C2 1F 41  returns 0x01 (0001ms, 0251ms total)
T20B8 000:279 JLINK_SetResetType(JLINKARM_RESET_TYPE_NORMAL)  returns JLINKARM_RESET_TYPE_NORMAL (0000ms, 0251ms total)
T20B8 000:279 JLINK_Reset() >0x88 JTAG> >0x80 JTAG> >0x40 JTAG> >0x40 JTAG> >0x50 JTAG> >0x40 JTAG> >0x40 JTAG> >0x40 JTAG> >0x50 JTAG> >0x40 JTAG> >0x40 JTAG> >0x30 JTAG> >0x40 JTAG> >0x40 JTAG> >0x40 JTAG> >0x40 JTAG> >0x40 JTAG> >0x50 JTAG> >0x40 JTAG> >0x80 JTAG> >0x40 JTAG> >0x30 JTAG> >0x40 JTAG> >0x40 JTAG> >0x40 JTAG> >0x40 JTAG> >0x40 JTAG> >0x50 JTAG> >0x40 JTAG> >0x80 JTAG> >0x40 JTAG> >0x30 JTAG> >0x40 JTAG> >0x50 JTAG> >0x40 JTAG> >0x40 JTAG> >0x40 JTAG> >0x30 JTAG> >0x40 JTAG> >0x50 JTAG>
 >0x40 JTAG>Found Cortex-M3 r1p1, Little endian. >0x50 JTAG> >0x50 JTAG> >0x40 JTAG> >0x40 JTAG> >0x30 JTAG> >0x30 JTAG> >0x50 JTAG> >0x40 JTAG> >0x80 JTAG> >0x40 JTAG> >0x30 JTAG> >0x40 JTAG> >0x50 JTAG> >0x40 JTAG> >0x40 JTAG> >0x40 JTAG> >0x30 JTAG> >0x40 JTAG> >0x50 JTAG> >0x40 JTAG>TPIU fitted. >0x40 JTAG> >0x40 JTAG> >0x30 JTAG> >0x40 JTAG> >0x50 JTAG> >0x40 JTAG>ETM fitted. >0x40 JTAG> >0x40 JTAG> >0x30 JTAG> >0x40 JTAG> >0x50 JTAG> >0x40 JTAG> >0x40 JTAG> >0x40 JTAG> >0x30 JTAG> >0x40 JTAG>
 >0x50 JTAG> >0x40 JTAG>FPUnit: 6 code (BP) slots and 2 literal slots >0x40 JTAG> >0x40 JTAG> >0x30 JTAG> >0x40 JTAG> >0x50 JTAG> >0x40 JTAG> >0x40 JTAG> >0x40 JTAG> >0x30 JTAG> >0x40 JTAG> >0x50 JTAG> >0x40 JTAG> >0x40 JTAG> >0x40 JTAG> >0x30 JTAG> >0x30 JTAG> >0x50 JTAG> >0x40 JTAG> -- CPU is running -- CPU_WriteMem(4 bytes @ 0xE000EDF0) -- CPU is running -- CPU_WriteMem(4 bytes @ 0xE000EDFC) -- CPU is running -- CPU_WriteMem(4 bytes @ 0xE000ED0C) -- CPU is running -- CPU_ReadMem(4 bytes @ 0xE000EDF0)
 -- CPU is running -- CPU_ReadMem(4 bytes @ 0xE000EDF0) -- CPU is running -- CPU_WriteMem(4 bytes @ 0xE000EDF0) -- CPU is running -- CPU_WriteMem(4 bytes @ 0xE000EDFC) -- CPU is running -- CPU_ReadMem(4 bytes @ 0xE000EDF0) >0xD0 JTAG> >0x40 JTAG> >0x30 JTAG> >0x40 JTAG> >0x50 JTAG> >0x40 JTAG> -- CPU_WriteMem(4 bytes @ 0xE000EDFC) -- CPU_WriteMem(4 bytes @ 0xE0001028) -- CPU_WriteMem(4 bytes @ 0xE0001038) -- CPU_WriteMem(4 bytes @ 0xE0001048) -- CPU_WriteMem(4 bytes @ 0xE0001058)
 -- CPU_WriteMem(4 bytes @ 0xE0002000) (0144ms, 0395ms total)
T20B8 000:423 JLINK_Halt()  returns 0x00 (0000ms, 0395ms total)
T20B8 000:423 JLINK_IsHalted()  returns TRUE (0000ms, 0395ms total)
T20B8 000:423 JLINK_ReadMemU32(0xE000EDF0, 0x0001 Items, ...) -- CPU_ReadMem(4 bytes @ 0xE000EDF0) -- Data:  03 00 03 00  returns 0x01 (0001ms, 0396ms total)
T20B8 000:424 JLINK_WriteU32(0xE000EDF0, 0xA05F0003) -- CPU_WriteMem(4 bytes @ 0xE000EDF0)  returns 0x00 (0001ms, 0397ms total)
T20B8 000:425 JLINK_WriteU32(0xE000EDFC, 0x01000000) -- CPU_WriteMem(4 bytes @ 0xE000EDFC)  returns 0x00 (0001ms, 0398ms total)
T20B8 000:432 JLINK_GetHWStatus(...)  returns 0x00 (0002ms, 0400ms total)
T20B8 000:440 JLINK_GetNumBPUnits(Type = 0xFFFFFF00)  returns 0x06 (0000ms, 0400ms total)
T20B8 000:440 JLINK_GetNumBPUnits(Type = 0xF0)  returns 0x2000 (0000ms, 0400ms total)
T20B8 000:440 JLINK_GetNumWPUnits()  returns 0x04 (0000ms, 0400ms total)
T20B8 000:444 JLINK_GetSpeed()  returns 0x7D0 (0001ms, 0401ms total)
T20B8 000:447 JLINK_ReadMemU32(0xE000E004, 0x0001 Items, ...) -- CPU_ReadMem(4 bytes @ 0xE000E004) -- Data:  01 00 00 00  returns 0x01 (0002ms, 0403ms total)
T20B8 000:449 JLINK_ReadMemU32(0xE000E004, 0x0001 Items, ...) -- CPU_ReadMem(4 bytes @ 0xE000E004) -- Data:  01 00 00 00  returns 0x01 (0001ms, 0404ms total)
T20B8 000:450 JLINK_WriteMem(0xE0001000, 0x001C Bytes, ...) -- Data:  01 00 00 00 00 00 00 00 00 00 00 00 00 00 00 00 ... -- CPU_WriteMem(28 bytes @ 0xE0001000)  returns 0x1C (0001ms, 0405ms total)
T20B8 000:451 JLINK_ReadMem (0xE0001000, 0x001C Bytes, ...) -- CPU_ReadMem(28 bytes @ 0xE0001000) -- Data:  01 00 00 40 00 00 00 00 00 00 00 00 00 00 00 00 ...  returns 0x00 (0001ms, 0406ms total)
T20B8 000:452 JLINK_Halt()  returns 0x00 (0000ms, 0406ms total)
T20B8 000:452 JLINK_IsHalted()  returns TRUE (0000ms, 0406ms total)
T20B8 000:454 JLINK_WriteMem(0x20000000, 0x0164 Bytes, ...) -- Data:  00 BE 0A E0 0D 78 2D 06 68 40 08 24 40 00 00 D3 ... -- CPU_WriteMem(356 bytes @ 0x20000000)  returns 0x164 (0003ms, 0409ms total)
T20B8 000:457 JLINK_WriteReg(R0, 0x08000000)  returns 0x00 (0000ms, 0409ms total)
T20B8 000:457 JLINK_WriteReg(R1, 0x007A1200)  returns 0x00 (0000ms, 0409ms total)
T20B8 000:457 JLINK_WriteReg(R2, 0x00000001)  returns 0x00 (0000ms, 0409ms total)
T20B8 000:457 JLINK_WriteReg(R3, 0x00000000)  returns 0x00 (0000ms, 0409ms total)
T20B8 000:457 JLINK_WriteReg(R4, 0x00000000)  returns 0x00 (0000ms, 0409ms total)
T20B8 000:457 JLINK_WriteReg(R5, 0x00000000)  returns 0x00 (0000ms, 0409ms total)
T20B8 000:457 JLINK_WriteReg(R6, 0x00000000)  returns 0x00 (0000ms, 0409ms total)
T20B8 000:457 JLINK_WriteReg(R7, 0x00000000)  returns 0x00 (0000ms, 0409ms total)
T20B8 000:457 JLINK_WriteReg(R8, 0x00000000)  returns 0x00 (0000ms, 0409ms total)
T20B8 000:457 JLINK_WriteReg(R9, 0x20000160)  returns 0x00 (0000ms, 0409ms total)
T20B8 000:457 JLINK_WriteReg(R10, 0x00000000)  returns 0x00 (0000ms, 0409ms total)
T20B8 000:457 JLINK_WriteReg(R11, 0x00000000)  returns 0x00 (0000ms, 0409ms total)
T20B8 000:457 JLINK_WriteReg(R12, 0x00000000)  returns 0x00 (0000ms, 0409ms total)
T20B8 000:457 JLINK_WriteReg(R13, 0x20000800)  returns 0x00 (0000ms, 0409ms total)
T20B8 000:457 JLINK_WriteReg(R14, 0x20000001)  returns 0x00 (0000ms, 0409ms total)
T20B8 000:457 JLINK_WriteReg(R15, 0x20000038)  returns 0x00 (0000ms, 0409ms total)
T20B8 000:457 JLINK_WriteReg(XPSR, 0x01000000)  returns 0x00 (0000ms, 0409ms total)
T20B8 000:457 JLINK_WriteReg(MSP, 0x20000800)  returns 0x00 (0000ms, 0409ms total)
T20B8 000:457 JLINK_WriteReg(PSP, 0x20000800)  returns 0x00 (0000ms, 0409ms total)
T20B8 000:457 JLINK_WriteReg(CFBP, 0x00000000)  returns 0x00 (0000ms, 0409ms total)
T20B8 000:457 JLINK_SetBPEx(Addr = 0x20000000, Type = 0xFFFFFFF2) -- CPU_ReadMem(2 bytes @ 0x20000000)  returns 0x00000001 (0001ms, 0410ms total)
T20B8 000:458 JLINK_Go() -- CPU_WriteMem(2 bytes @ 0x20000000) -- CPU_WriteMem(4 bytes @ 0xE0002008) -- CPU_WriteMem(4 bytes @ 0xE000200C) -- CPU_WriteMem(4 bytes @ 0xE0002010) -- CPU_WriteMem(4 bytes @ 0xE0002014) -- CPU_WriteMem(4 bytes @ 0xE0002018) -- CPU_WriteMem(4 bytes @ 0xE000201C) (0010ms, 0420ms total)
T20B8 000:468 JLINK_IsHalted() -- CPU_ReadMem(2 bytes @ 0x20000000)  returns TRUE (0006ms, 0426ms total)
T20B8 000:474 JLINK_ReadReg(R15)  returns 0x20000000 (0000ms, 0420ms total)
T20B8 000:474 JLINK_ClrBPEx(BPHandle = 0x00000001)  returns 0x00 (0000ms, 0420ms total)
T20B8 000:474 JLINK_ReadReg(R0)  returns 0x00000000 (0000ms, 0420ms total)
T20B8 000:474 JLINK_WriteReg(R0, 0x08000000)  returns 0x00 (0000ms, 0420ms total)
T20B8 000:474 JLINK_WriteReg(R1, 0x007A1200)  returns 0x00 (0000ms, 0420ms total)
T20B8 000:474 JLINK_WriteReg(R2, 0x00000001)  returns 0x00 (0000ms, 0420ms total)
T20B8 000:474 JLINK_WriteReg(R3, 0x00000000)  returns 0x00 (0000ms, 0420ms total)
T20B8 000:474 JLINK_WriteReg(R4, 0x00000000)  returns 0x00 (0000ms, 0420ms total)
T20B8 000:474 JLINK_WriteReg(R5, 0x00000000)  returns 0x00 (0000ms, 0420ms total)
T20B8 000:474 JLINK_WriteReg(R6, 0x00000000)  returns 0x00 (0000ms, 0420ms total)
T20B8 000:474 JLINK_WriteReg(R7, 0x00000000)  returns 0x00 (0000ms, 0420ms total)
T20B8 000:474 JLINK_WriteReg(R8, 0x00000000)  returns 0x00 (0000ms, 0420ms total)
T20B8 000:474 JLINK_WriteReg(R9, 0x20000160)  returns 0x00 (0000ms, 0420ms total)
T20B8 000:474 JLINK_WriteReg(R10, 0x00000000)  returns 0x00 (0000ms, 0420ms total)
T20B8 000:474 JLINK_WriteReg(R11, 0x00000000)  returns 0x00 (0000ms, 0420ms total)
T20B8 000:474 JLINK_WriteReg(R12, 0x00000000)  returns 0x00 (0000ms, 0420ms total)
T20B8 000:474 JLINK_WriteReg(R13, 0x20000800)  returns 0x00 (0000ms, 0420ms total)
T20B8 000:474 JLINK_WriteReg(R14, 0x20000001)  returns 0x00 (0000ms, 0420ms total)
T20B8 000:474 JLINK_WriteReg(R15, 0x2000007C)  returns 0x00 (0000ms, 0420ms total)
T20B8 000:474 JLINK_WriteReg(XPSR, 0x01000000)  returns 0x00 (0000ms, 0420ms total)
T20B8 000:474 JLINK_WriteReg(MSP, 0x20000800)  returns 0x00 (0000ms, 0420ms total)
T20B8 000:474 JLINK_WriteReg(PSP, 0x20000800)  returns 0x00 (0000ms, 0420ms total)
T20B8 000:474 JLINK_WriteReg(CFBP, 0x00000000)  returns 0x00 (0000ms, 0420ms total)
T20B8 000:474 JLINK_SetBPEx(Addr = 0x20000000, Type = 0xFFFFFFF2)  returns 0x00000002 (0000ms, 0420ms total)
T20B8 000:474 JLINK_Go() (0003ms, 0423ms total)
T20B8 000:477 JLINK_IsHalted()  returns FALSE (0001ms, 0424ms total)
T20B8 000:550 JLINK_IsHalted() -- CPU_ReadMem(2 bytes @ 0x20000000)  returns TRUE (0005ms, 0428ms total)
T20B8 000:555 JLINK_ReadReg(R15)  returns 0x20000000 (0000ms, 0423ms total)
T20B8 000:555 JLINK_ClrBPEx(BPHandle = 0x00000002)  returns 0x00 (0000ms, 0423ms total)
T20B8 000:555 JLINK_ReadReg(R0)  returns 0x00000000 (0000ms, 0423ms total)
T20B8 000:606 JLINK_WriteReg(R0, 0x00000001)  returns 0x00 (0000ms, 0423ms total)
T20B8 000:606 JLINK_WriteReg(R1, 0x007A1200)  returns 0x00 (0000ms, 0423ms total)
T20B8 000:606 JLINK_WriteReg(R2, 0x00000001)  returns 0x00 (0000ms, 0423ms total)
T20B8 000:606 JLINK_WriteReg(R3, 0x00000000)  returns 0x00 (0000ms, 0423ms total)
T20B8 000:606 JLINK_WriteReg(R4, 0x00000000)  returns 0x00 (0000ms, 0423ms total)
T20B8 000:606 JLINK_WriteReg(R5, 0x00000000)  returns 0x00 (0000ms, 0423ms total)
T20B8 000:606 JLINK_WriteReg(R6, 0x00000000)  returns 0x00 (0000ms, 0423ms total)
T20B8 000:606 JLINK_WriteReg(R7, 0x00000000)  returns 0x00 (0000ms, 0423ms total)
T20B8 000:606 JLINK_WriteReg(R8, 0x00000000)  returns 0x00 (0000ms, 0423ms total)
T20B8 000:606 JLINK_WriteReg(R9, 0x20000160)  returns 0x00 (0000ms, 0423ms total)
T20B8 000:606 JLINK_WriteReg(R10, 0x00000000)  returns 0x00 (0000ms, 0423ms total)
T20B8 000:606 JLINK_WriteReg(R11, 0x00000000)  returns 0x00 (0000ms, 0423ms total)
T20B8 000:606 JLINK_WriteReg(R12, 0x00000000)  returns 0x00 (0000ms, 0423ms total)
T20B8 000:606 JLINK_WriteReg(R13, 0x20000800)  returns 0x00 (0000ms, 0423ms total)
T20B8 000:606 JLINK_WriteReg(R14, 0x20000001)  returns 0x00 (0000ms, 0423ms total)
T20B8 000:606 JLINK_WriteReg(R15, 0x2000006A)  returns 0x00 (0000ms, 0423ms total)
T20B8 000:606 JLINK_WriteReg(XPSR, 0x01000000)  returns 0x00 (0000ms, 0423ms total)
T20B8 000:606 JLINK_WriteReg(MSP, 0x20000800)  returns 0x00 (0000ms, 0423ms total)
T20B8 000:606 JLINK_WriteReg(PSP, 0x20000800)  returns 0x00 (0000ms, 0423ms total)
T20B8 000:606 JLINK_WriteReg(CFBP, 0x00000000)  returns 0x00 (0000ms, 0423ms total)
T20B8 000:606 JLINK_SetBPEx(Addr = 0x20000000, Type = 0xFFFFFFF2)  returns 0x00000003 (0000ms, 0423ms total)
T20B8 000:606 JLINK_Go() (0002ms, 0425ms total)
T20B8 000:608 JLINK_IsHalted() -- CPU_ReadMem(2 bytes @ 0x20000000)  returns TRUE (0007ms, 0432ms total)
T20B8 000:615 JLINK_ReadReg(R15)  returns 0x20000000 (0000ms, 0425ms total)
T20B8 000:615 JLINK_ClrBPEx(BPHandle = 0x00000003)  returns 0x00 (0000ms, 0425ms total)
T20B8 000:615 JLINK_ReadReg(R0)  returns 0x00000000 (0000ms, 0425ms total)
T20B8 000:619 JLINK_WriteMem(0x20000000, 0x0164 Bytes, ...) -- Data:  00 BE 0A E0 0D 78 2D 06 68 40 08 24 40 00 00 D3 ... -- CPU_WriteMem(356 bytes @ 0x20000000)  returns 0x164 (0003ms, 0428ms total)
T20B8 000:622 JLINK_WriteReg(R0, 0x08000000)  returns 0x00 (0000ms, 0428ms total)
T20B8 000:622 JLINK_WriteReg(R1, 0x007A1200)  returns 0x00 (0000ms, 0428ms total)
T20B8 000:622 JLINK_WriteReg(R2, 0x00000002)  returns 0x00 (0000ms, 0428ms total)
T20B8 000:622 JLINK_WriteReg(R3, 0x00000000)  returns 0x00 (0000ms, 0428ms total)
T20B8 000:622 JLINK_WriteReg(R4, 0x00000000)  returns 0x00 (0000ms, 0428ms total)
T20B8 000:622 JLINK_WriteReg(R5, 0x00000000)  returns 0x00 (0000ms, 0428ms total)
T20B8 000:622 JLINK_WriteReg(R6, 0x00000000)  returns 0x00 (0000ms, 0428ms total)
T20B8 000:622 JLINK_WriteReg(R7, 0x00000000)  returns 0x00 (0000ms, 0428ms total)
T20B8 000:622 JLINK_WriteReg(R8, 0x00000000)  returns 0x00 (0000ms, 0428ms total)
T20B8 000:622 JLINK_WriteReg(R9, 0x20000160)  returns 0x00 (0000ms, 0428ms total)
T20B8 000:622 JLINK_WriteReg(R10, 0x00000000)  returns 0x00 (0000ms, 0428ms total)
T20B8 000:622 JLINK_WriteReg(R11, 0x00000000)  returns 0x00 (0000ms, 0428ms total)
T20B8 000:622 JLINK_WriteReg(R12, 0x00000000)  returns 0x00 (0000ms, 0428ms total)
T20B8 000:622 JLINK_WriteReg(R13, 0x20000800)  returns 0x00 (0000ms, 0428ms total)
T20B8 000:622 JLINK_WriteReg(R14, 0x20000001)  returns 0x00 (0000ms, 0428ms total)
T20B8 000:622 JLINK_WriteReg(R15, 0x20000038)  returns 0x00 (0000ms, 0428ms total)
T20B8 000:622 JLINK_WriteReg(XPSR, 0x01000000)  returns 0x00 (0000ms, 0428ms total)
T20B8 000:622 JLINK_WriteReg(MSP, 0x20000800)  returns 0x00 (0000ms, 0428ms total)
T20B8 000:622 JLINK_WriteReg(PSP, 0x20000800)  returns 0x00 (0000ms, 0428ms total)
T20B8 000:622 JLINK_WriteReg(CFBP, 0x00000000)  returns 0x00 (0000ms, 0428ms total)
T20B8 000:622 JLINK_SetBPEx(Addr = 0x20000000, Type = 0xFFFFFFF2) -- CPU_ReadMem(2 bytes @ 0x20000000)  returns 0x00000004 (0001ms, 0429ms total)
T20B8 000:623 JLINK_Go() -- CPU_WriteMem(2 bytes @ 0x20000000) (0004ms, 0433ms total)
T20B8 000:627 JLINK_IsHalted() -- CPU_ReadMem(2 bytes @ 0x20000000)  returns TRUE (0006ms, 0439ms total)
T20B8 000:633 JLINK_ReadReg(R15)  returns 0x20000000 (0000ms, 0433ms total)
T20B8 000:633 JLINK_ClrBPEx(BPHandle = 0x00000004)  returns 0x00 (0000ms, 0433ms total)
T20B8 000:633 JLINK_ReadReg(R0)  returns 0x00000000 (0000ms, 0433ms total)
T20B8 000:633 JLINK_WriteMem(0x20000164, 0x0400 Bytes, ...) -- Data:  40 11 00 20 45 01 00 08 C5 02 00 08 C7 02 00 08 ... -- CPU_WriteMem(1024 bytes @ 0x20000164)  returns 0x400 (0007ms, 0440ms total)
T20B8 000:640 JLINK_WriteReg(R0, 0x08000000)  returns 0x00 (0000ms, 0440ms total)
T20B8 000:640 JLINK_WriteReg(R1, 0x00000400)  returns 0x00 (0000ms, 0440ms total)
T20B8 000:640 JLINK_WriteReg(R2, 0x20000164)  returns 0x00 (0000ms, 0440ms total)
T20B8 000:640 JLINK_WriteReg(R3, 0x00000000)  returns 0x00 (0000ms, 0440ms total)
T20B8 000:640 JLINK_WriteReg(R4, 0x00000000)  returns 0x00 (0000ms, 0440ms total)
T20B8 000:640 JLINK_WriteReg(R5, 0x00000000)  returns 0x00 (0000ms, 0440ms total)
T20B8 000:640 JLINK_WriteReg(R6, 0x00000000)  returns 0x00 (0000ms, 0440ms total)
T20B8 000:640 JLINK_WriteReg(R7, 0x00000000)  returns 0x00 (0000ms, 0440ms total)
T20B8 000:640 JLINK_WriteReg(R8, 0x00000000)  returns 0x00 (0000ms, 0440ms total)
T20B8 000:640 JLINK_WriteReg(R9, 0x20000160)  returns 0x00 (0000ms, 0440ms total)
T20B8 000:640 JLINK_WriteReg(R10, 0x00000000)  returns 0x00 (0000ms, 0440ms total)
T20B8 000:640 JLINK_WriteReg(R11, 0x00000000)  returns 0x00 (0000ms, 0440ms total)
T20B8 000:640 JLINK_WriteReg(R12, 0x00000000)  returns 0x00 (0000ms, 0440ms total)
T20B8 000:640 JLINK_WriteReg(R13, 0x20000800)  returns 0x00 (0000ms, 0440ms total)
T20B8 000:640 JLINK_WriteReg(R14, 0x20000001)  returns 0x00 (0000ms, 0440ms total)
T20B8 000:640 JLINK_WriteReg(R15, 0x200000F4)  returns 0x00 (0000ms, 0440ms total)
T20B8 000:640 JLINK_WriteReg(XPSR, 0x01000000)  returns 0x00 (0000ms, 0440ms total)
T20B8 000:640 JLINK_WriteReg(MSP, 0x20000800)  returns 0x00 (0000ms, 0440ms total)
T20B8 000:640 JLINK_WriteReg(PSP, 0x20000800)  returns 0x00 (0000ms, 0440ms total)
T20B8 000:640 JLINK_WriteReg(CFBP, 0x00000000)  returns 0x00 (0000ms, 0440ms total)
T20B8 000:640 JLINK_SetBPEx(Addr = 0x20000000, Type = 0xFFFFFFF2)  returns 0x00000005 (0000ms, 0440ms total)
T20B8 000:640 JLINK_Go() (0003ms, 0443ms total)
T20B8 000:643 JLINK_IsHalted()  returns FALSE (0001ms, 0444ms total)
T20B8 000:813 JLINK_IsHalted() -- CPU_ReadMem(2 bytes @ 0x20000000)  returns TRUE (0006ms, 0449ms total)
T20B8 000:819 JLINK_ReadReg(R15)  returns 0x20000000 (0000ms, 0443ms total)
T20B8 000:819 JLINK_ClrBPEx(BPHandle = 0x00000005)  returns 0x00 (0000ms, 0443ms total)
T20B8 000:819 JLINK_ReadReg(R0)  returns 0x00000000 (0000ms, 0443ms total)
T20B8 000:819 JLINK_WriteMem(0x20000164, 0x0400 Bytes, ...) -- Data:  AD F8 08 00 AD F8 0C 00 0C 20 AD F8 0A 00 69 46 ... -- CPU_WriteMem(1024 bytes @ 0x20000164)  returns 0x400 (0007ms, 0450ms total)
T20B8 000:826 JLINK_WriteReg(R0, 0x08000400)  returns 0x00 (0000ms, 0450ms total)
T20B8 000:826 JLINK_WriteReg(R1, 0x00000400)  returns 0x00 (0000ms, 0450ms total)
T20B8 000:826 JLINK_WriteReg(R2, 0x20000164)  returns 0x00 (0000ms, 0450ms total)
T20B8 000:826 JLINK_WriteReg(R3, 0x00000000)  returns 0x00 (0000ms, 0450ms total)
T20B8 000:826 JLINK_WriteReg(R4, 0x00000000)  returns 0x00 (0000ms, 0450ms total)
T20B8 000:826 JLINK_WriteReg(R5, 0x00000000)  returns 0x00 (0000ms, 0450ms total)
T20B8 000:826 JLINK_WriteReg(R6, 0x00000000)  returns 0x00 (0000ms, 0450ms total)
T20B8 000:826 JLINK_WriteReg(R7, 0x00000000)  returns 0x00 (0000ms, 0450ms total)
T20B8 000:826 JLINK_WriteReg(R8, 0x00000000)  returns 0x00 (0000ms, 0450ms total)
T20B8 000:826 JLINK_WriteReg(R9, 0x20000160)  returns 0x00 (0000ms, 0450ms total)
T20B8 000:826 JLINK_WriteReg(R10, 0x00000000)  returns 0x00 (0000ms, 0450ms total)
T20B8 000:826 JLINK_WriteReg(R11, 0x00000000)  returns 0x00 (0000ms, 0450ms total)
T20B8 000:826 JLINK_WriteReg(R12, 0x00000000)  returns 0x00 (0000ms, 0450ms total)
T20B8 000:826 JLINK_WriteReg(R13, 0x20000800)  returns 0x00 (0000ms, 0450ms total)
T20B8 000:826 JLINK_WriteReg(R14, 0x20000001)  returns 0x00 (0000ms, 0450ms total)
T20B8 000:826 JLINK_WriteReg(R15, 0x200000F4)  returns 0x00 (0000ms, 0450ms total)
T20B8 000:826 JLINK_WriteReg(XPSR, 0x01000000)  returns 0x00 (0000ms, 0450ms total)
T20B8 000:826 JLINK_WriteReg(MSP, 0x20000800)  returns 0x00 (0000ms, 0450ms total)
T20B8 000:826 JLINK_WriteReg(PSP, 0x20000800)  returns 0x00 (0000ms, 0450ms total)
T20B8 000:826 JLINK_WriteReg(CFBP, 0x00000000)  returns 0x00 (0000ms, 0450ms total)
T20B8 000:826 JLINK_SetBPEx(Addr = 0x20000000, Type = 0xFFFFFFF2)  returns 0x00000006 (0000ms, 0450ms total)
T20B8 000:826 JLINK_Go() (0003ms, 0453ms total)
T20B8 000:829 JLINK_IsHalted()  returns FALSE (0001ms, 0454ms total)
T20B8 000:851 JLINK_IsHalted()  returns FALSE (0001ms, 0454ms total)
T20B8 000:859 JLINK_IsHalted()  returns FALSE (0001ms, 0454ms total)
T20B8 000:861 JLINK_IsHalted() -- CPU_ReadMem(2 bytes @ 0x20000000)  returns TRUE (0006ms, 0459ms total)
T20B8 000:867 JLINK_ReadReg(R15)  returns 0x20000000 (0000ms, 0453ms total)
T20B8 000:867 JLINK_ClrBPEx(BPHandle = 0x00000006)  returns 0x00 (0000ms, 0453ms total)
T20B8 000:867 JLINK_ReadReg(R0)  returns 0x00000000 (0000ms, 0453ms total)
T20B8 000:867 JLINK_WriteMem(0x20000164, 0x0400 Bytes, ...) -- Data:  10 F0 04 0F 08 D0 29 19 73 48 0A 68 42 61 4A 68 ... -- CPU_WriteMem(1024 bytes @ 0x20000164)  returns 0x400 (0007ms, 0460ms total)
T20B8 000:874 JLINK_WriteReg(R0, 0x08000800)  returns 0x00 (0000ms, 0460ms total)
T20B8 000:874 JLINK_WriteReg(R1, 0x00000400)  returns 0x00 (0000ms, 0460ms total)
T20B8 000:874 JLINK_WriteReg(R2, 0x20000164)  returns 0x00 (0000ms, 0460ms total)
T20B8 000:874 JLINK_WriteReg(R3, 0x00000000)  returns 0x00 (0000ms, 0460ms total)
T20B8 000:874 JLINK_WriteReg(R4, 0x00000000)  returns 0x00 (0000ms, 0460ms total)
T20B8 000:874 JLINK_WriteReg(R5, 0x00000000)  returns 0x00 (0000ms, 0460ms total)
T20B8 000:874 JLINK_WriteReg(R6, 0x00000000)  returns 0x00 (0000ms, 0460ms total)
T20B8 000:874 JLINK_WriteReg(R7, 0x00000000)  returns 0x00 (0000ms, 0460ms total)
T20B8 000:874 JLINK_WriteReg(R8, 0x00000000)  returns 0x00 (0000ms, 0460ms total)
T20B8 000:874 JLINK_WriteReg(R9, 0x20000160)  returns 0x00 (0000ms, 0460ms total)
T20B8 000:874 JLINK_WriteReg(R10, 0x00000000)  returns 0x00 (0000ms, 0460ms total)
T20B8 000:874 JLINK_WriteReg(R11, 0x00000000)  returns 0x00 (0000ms, 0460ms total)
T20B8 000:874 JLINK_WriteReg(R12, 0x00000000)  returns 0x00 (0000ms, 0460ms total)
T20B8 000:874 JLINK_WriteReg(R13, 0x20000800)  returns 0x00 (0000ms, 0460ms total)
T20B8 000:874 JLINK_WriteReg(R14, 0x20000001)  returns 0x00 (0000ms, 0460ms total)
T20B8 000:874 JLINK_WriteReg(R15, 0x200000F4)  returns 0x00 (0000ms, 0460ms total)
T20B8 000:874 JLINK_WriteReg(XPSR, 0x01000000)  returns 0x00 (0000ms, 0460ms total)
T20B8 000:874 JLINK_WriteReg(MSP, 0x20000800)  returns 0x00 (0000ms, 0460ms total)
T20B8 000:874 JLINK_WriteReg(PSP, 0x20000800)  returns 0x00 (0000ms, 0460ms total)
T20B8 000:874 JLINK_WriteReg(CFBP, 0x00000000)  returns 0x00 (0000ms, 0460ms total)
T20B8 000:874 JLINK_SetBPEx(Addr = 0x20000000, Type = 0xFFFFFFF2)  returns 0x00000007 (0000ms, 0460ms total)
T20B8 000:874 JLINK_Go() (0003ms, 0463ms total)
T20B8 000:877 JLINK_IsHalted()  returns FALSE (0001ms, 0464ms total)
T20B8 000:884 JLINK_IsHalted()  returns FALSE (0001ms, 0464ms total)
T20B8 000:891 JLINK_IsHalted()  returns FALSE (0001ms, 0464ms total)
T20B8 000:893 JLINK_IsHalted()  returns FALSE (0001ms, 0464ms total)
T20B8 000:895 JLINK_IsHalted()  returns FALSE (0001ms, 0464ms total)
T20B8 000:898 JLINK_IsHalted()  returns FALSE (0001ms, 0464ms total)
T20B8 000:908 JLINK_IsHalted() -- CPU_ReadMem(2 bytes @ 0x20000000)  returns TRUE (0006ms, 0469ms total)
T20B8 000:914 JLINK_ReadReg(R15)  returns 0x20000000 (0000ms, 0463ms total)
T20B8 000:914 JLINK_ClrBPEx(BPHandle = 0x00000007)  returns 0x00 (0000ms, 0463ms total)
T20B8 000:914 JLINK_ReadReg(R0)  returns 0x00000000 (0000ms, 0463ms total)
T20B8 000:915 JLINK_WriteMem(0x20000164, 0x0400 Bytes, ...) -- Data:  0C 00 0C 20 AD F8 0A 00 69 46 12 48 01 F0 6B F8 ... -- CPU_WriteMem(1024 bytes @ 0x20000164)  returns 0x400 (0006ms, 0469ms total)
T20B8 000:921 JLINK_WriteReg(R0, 0x08000C00)  returns 0x00 (0001ms, 0470ms total)
T20B8 000:922 JLINK_WriteReg(R1, 0x00000400)  returns 0x00 (0000ms, 0470ms total)
T20B8 000:922 JLINK_WriteReg(R2, 0x20000164)  returns 0x00 (0000ms, 0470ms total)
T20B8 000:922 JLINK_WriteReg(R3, 0x00000000)  returns 0x00 (0000ms, 0470ms total)
T20B8 000:922 JLINK_WriteReg(R4, 0x00000000)  returns 0x00 (0000ms, 0470ms total)
T20B8 000:922 JLINK_WriteReg(R5, 0x00000000)  returns 0x00 (0000ms, 0470ms total)
T20B8 000:922 JLINK_WriteReg(R6, 0x00000000)  returns 0x00 (0000ms, 0470ms total)
T20B8 000:922 JLINK_WriteReg(R7, 0x00000000)  returns 0x00 (0000ms, 0470ms total)
T20B8 000:922 JLINK_WriteReg(R8, 0x00000000)  returns 0x00 (0000ms, 0470ms total)
T20B8 000:922 JLINK_WriteReg(R9, 0x20000160)  returns 0x00 (0000ms, 0470ms total)
T20B8 000:922 JLINK_WriteReg(R10, 0x00000000)  returns 0x00 (0000ms, 0470ms total)
T20B8 000:922 JLINK_WriteReg(R11, 0x00000000)  returns 0x00 (0000ms, 0470ms total)
T20B8 000:922 JLINK_WriteReg(R12, 0x00000000)  returns 0x00 (0000ms, 0470ms total)
T20B8 000:922 JLINK_WriteReg(R13, 0x20000800)  returns 0x00 (0000ms, 0470ms total)
T20B8 000:922 JLINK_WriteReg(R14, 0x20000001)  returns 0x00 (0000ms, 0470ms total)
T20B8 000:922 JLINK_WriteReg(R15, 0x200000F4)  returns 0x00 (0000ms, 0470ms total)
T20B8 000:922 JLINK_WriteReg(XPSR, 0x01000000)  returns 0x00 (0000ms, 0470ms total)
T20B8 000:922 JLINK_WriteReg(MSP, 0x20000800)  returns 0x00 (0000ms, 0470ms total)
T20B8 000:922 JLINK_WriteReg(PSP, 0x20000800)  returns 0x00 (0000ms, 0470ms total)
T20B8 000:922 JLINK_WriteReg(CFBP, 0x00000000)  returns 0x00 (0000ms, 0470ms total)
T20B8 000:922 JLINK_SetBPEx(Addr = 0x20000000, Type = 0xFFFFFFF2)  returns 0x00000008 (0000ms, 0470ms total)
T20B8 000:922 JLINK_Go() (0002ms, 0472ms total)
T20B8 000:924 JLINK_IsHalted()  returns FALSE (0001ms, 0473ms total)
T20B8 000:930 JLINK_IsHalted()  returns FALSE (0001ms, 0473ms total)
T20B8 000:941 JLINK_IsHalted()  returns FALSE (0001ms, 0473ms total)
T20B8 000:943 JLINK_IsHalted()  returns FALSE (0001ms, 0473ms total)
T20B8 000:955 JLINK_IsHalted() -- CPU_ReadMem(2 bytes @ 0x20000000)  returns TRUE (0006ms, 0478ms total)
T20B8 000:961 JLINK_ReadReg(R15)  returns 0x20000000 (0000ms, 0472ms total)
T20B8 000:961 JLINK_ClrBPEx(BPHandle = 0x00000008)  returns 0x00 (0000ms, 0472ms total)
T20B8 000:961 JLINK_ReadReg(R0)  returns 0x00000000 (0000ms, 0472ms total)
T20B8 000:962 JLINK_WriteMem(0x20000164, 0x0400 Bytes, ...) -- Data:  06 E0 1D F8 05 10 55 48 00 F0 66 FF 68 1C C5 B2 ... -- CPU_WriteMem(1024 bytes @ 0x20000164)  returns 0x400 (0006ms, 0478ms total)
T20B8 000:968 JLINK_WriteReg(R0, 0x08001000)  returns 0x00 (0000ms, 0478ms total)
T20B8 000:968 JLINK_WriteReg(R1, 0x00000400)  returns 0x00 (0000ms, 0478ms total)
T20B8 000:968 JLINK_WriteReg(R2, 0x20000164)  returns 0x00 (0000ms, 0478ms total)
T20B8 000:968 JLINK_WriteReg(R3, 0x00000000)  returns 0x00 (0000ms, 0478ms total)
T20B8 000:968 JLINK_WriteReg(R4, 0x00000000)  returns 0x00 (0000ms, 0478ms total)
T20B8 000:968 JLINK_WriteReg(R5, 0x00000000)  returns 0x00 (0000ms, 0478ms total)
T20B8 000:968 JLINK_WriteReg(R6, 0x00000000)  returns 0x00 (0000ms, 0478ms total)
T20B8 000:968 JLINK_WriteReg(R7, 0x00000000)  returns 0x00 (0000ms, 0478ms total)
T20B8 000:968 JLINK_WriteReg(R8, 0x00000000)  returns 0x00 (0000ms, 0478ms total)
T20B8 000:968 JLINK_WriteReg(R9, 0x20000160)  returns 0x00 (0000ms, 0478ms total)
T20B8 000:968 JLINK_WriteReg(R10, 0x00000000)  returns 0x00 (0000ms, 0478ms total)
T20B8 000:968 JLINK_WriteReg(R11, 0x00000000)  returns 0x00 (0000ms, 0478ms total)
T20B8 000:968 JLINK_WriteReg(R12, 0x00000000)  returns 0x00 (0000ms, 0478ms total)
T20B8 000:968 JLINK_WriteReg(R13, 0x20000800)  returns 0x00 (0000ms, 0478ms total)
T20B8 000:968 JLINK_WriteReg(R14, 0x20000001)  returns 0x00 (0000ms, 0478ms total)
T20B8 000:968 JLINK_WriteReg(R15, 0x200000F4)  returns 0x00 (0000ms, 0478ms total)
T20B8 000:968 JLINK_WriteReg(XPSR, 0x01000000)  returns 0x00 (0000ms, 0478ms total)
T20B8 000:968 JLINK_WriteReg(MSP, 0x20000800)  returns 0x00 (0000ms, 0478ms total)
T20B8 000:968 JLINK_WriteReg(PSP, 0x20000800)  returns 0x00 (0000ms, 0478ms total)
T20B8 000:968 JLINK_WriteReg(CFBP, 0x00000000)  returns 0x00 (0000ms, 0478ms total)
T20B8 000:968 JLINK_SetBPEx(Addr = 0x20000000, Type = 0xFFFFFFF2)  returns 0x00000009 (0000ms, 0478ms total)
T20B8 000:968 JLINK_Go() (0003ms, 0481ms total)
T20B8 000:971 JLINK_IsHalted()  returns FALSE (0001ms, 0482ms total)
T20B8 000:982 JLINK_IsHalted()  returns FALSE (0001ms, 0482ms total)
T20B8 000:984 JLINK_IsHalted()  returns FALSE (0001ms, 0482ms total)
T20B8 000:986 JLINK_IsHalted()  returns FALSE (0001ms, 0482ms total)
T20B8 000:988 JLINK_IsHalted()  returns FALSE (0001ms, 0482ms total)
T20B8 000:990 JLINK_IsHalted()  returns FALSE (0002ms, 0483ms total)
T20B8 000:993 JLINK_IsHalted()  returns FALSE (0002ms, 0483ms total)
T20B8 000:998 JLINK_IsHalted()  returns FALSE (0001ms, 0482ms total)
T20B8 001:000 JLINK_IsHalted()  returns FALSE (0001ms, 0482ms total)
T20B8 001:002 JLINK_IsHalted() -- CPU_ReadMem(2 bytes @ 0x20000000)  returns TRUE (0006ms, 0487ms total)
T20B8 001:008 JLINK_ReadReg(R15)  returns 0x20000000 (0000ms, 0481ms total)
T20B8 001:008 JLINK_ClrBPEx(BPHandle = 0x00000009)  returns 0x00 (0000ms, 0481ms total)
T20B8 001:008 JLINK_ReadReg(R0)  returns 0x00000000 (0000ms, 0481ms total)
T20B8 001:008 JLINK_WriteMem(0x20000164, 0x0400 Bytes, ...) -- Data:  F0 01 57 4A 12 1F 11 60 25 E0 55 49 28 31 88 42 ... -- CPU_WriteMem(1024 bytes @ 0x20000164)  returns 0x400 (0007ms, 0488ms total)
T20B8 001:015 JLINK_WriteReg(R0, 0x08001400)  returns 0x00 (0000ms, 0488ms total)
T20B8 001:015 JLINK_WriteReg(R1, 0x00000400)  returns 0x00 (0000ms, 0488ms total)
T20B8 001:015 JLINK_WriteReg(R2, 0x20000164)  returns 0x00 (0000ms, 0488ms total)
T20B8 001:015 JLINK_WriteReg(R3, 0x00000000)  returns 0x00 (0000ms, 0488ms total)
T20B8 001:015 JLINK_WriteReg(R4, 0x00000000)  returns 0x00 (0000ms, 0488ms total)
T20B8 001:015 JLINK_WriteReg(R5, 0x00000000)  returns 0x00 (0000ms, 0488ms total)
T20B8 001:015 JLINK_WriteReg(R6, 0x00000000)  returns 0x00 (0000ms, 0488ms total)
T20B8 001:015 JLINK_WriteReg(R7, 0x00000000)  returns 0x00 (0000ms, 0488ms total)
T20B8 001:015 JLINK_WriteReg(R8, 0x00000000)  returns 0x00 (0001ms, 0489ms total)
T20B8 001:016 JLINK_WriteReg(R9, 0x20000160)  returns 0x00 (0000ms, 0489ms total)
T20B8 001:016 JLINK_WriteReg(R10, 0x00000000)  returns 0x00 (0000ms, 0489ms total)
T20B8 001:016 JLINK_WriteReg(R11, 0x00000000)  returns 0x00 (0000ms, 0489ms total)
T20B8 001:016 JLINK_WriteReg(R12, 0x00000000)  returns 0x00 (0000ms, 0489ms total)
T20B8 001:016 JLINK_WriteReg(R13, 0x20000800)  returns 0x00 (0000ms, 0489ms total)
T20B8 001:016 JLINK_WriteReg(R14, 0x20000001)  returns 0x00 (0000ms, 0489ms total)
T20B8 001:016 JLINK_WriteReg(R15, 0x200000F4)  returns 0x00 (0000ms, 0489ms total)
T20B8 001:016 JLINK_WriteReg(XPSR, 0x01000000)  returns 0x00 (0000ms, 0489ms total)
T20B8 001:016 JLINK_WriteReg(MSP, 0x20000800)  returns 0x00 (0000ms, 0489ms total)
T20B8 001:016 JLINK_WriteReg(PSP, 0x20000800)  returns 0x00 (0000ms, 0489ms total)
T20B8 001:016 JLINK_WriteReg(CFBP, 0x00000000)  returns 0x00 (0000ms, 0489ms total)
T20B8 001:016 JLINK_SetBPEx(Addr = 0x20000000, Type = 0xFFFFFFF2)  returns 0x0000000A (0000ms, 0489ms total)
T20B8 001:016 JLINK_Go() (0002ms, 0491ms total)
T20B8 001:018 JLINK_IsHalted()  returns FALSE (0001ms, 0492ms total)
T20B8 001:028 JLINK_IsHalted()  returns FALSE (0001ms, 0492ms total)
T20B8 001:030 JLINK_IsHalted()  returns FALSE (0001ms, 0492ms total)
T20B8 001:032 JLINK_IsHalted()  returns FALSE (0001ms, 0492ms total)
T20B8 001:034 JLINK_IsHalted()  returns FALSE (0001ms, 0492ms total)
T20B8 001:036 JLINK_IsHalted()  returns FALSE (0001ms, 0492ms total)
T20B8 001:038 JLINK_IsHalted()  returns FALSE (0001ms, 0492ms total)
T20B8 001:040 JLINK_IsHalted()  returns FALSE (0001ms, 0492ms total)
T20B8 001:050 JLINK_IsHalted() -- CPU_ReadMem(2 bytes @ 0x20000000)  returns TRUE (0007ms, 0498ms total)
T20B8 001:057 JLINK_ReadReg(R15)  returns 0x20000000 (0000ms, 0491ms total)
T20B8 001:057 JLINK_ClrBPEx(BPHandle = 0x0000000A)  returns 0x00 (0000ms, 0491ms total)
T20B8 001:057 JLINK_ReadReg(R0)  returns 0x00000000 (0000ms, 0491ms total)
T20B8 001:057 JLINK_WriteMem(0x20000164, 0x0400 Bytes, ...) -- Data:  7E 60 12 E0 00 F4 80 16 B6 F5 80 1F 06 D1 03 26 ... -- CPU_WriteMem(1024 bytes @ 0x20000164)  returns 0x400 (0007ms, 0498ms total)
T20B8 001:064 JLINK_WriteReg(R0, 0x08001800)  returns 0x00 (0000ms, 0498ms total)
T20B8 001:064 JLINK_WriteReg(R1, 0x00000400)  returns 0x00 (0000ms, 0498ms total)
T20B8 001:064 JLINK_WriteReg(R2, 0x20000164)  returns 0x00 (0000ms, 0498ms total)
T20B8 001:064 JLINK_WriteReg(R3, 0x00000000)  returns 0x00 (0000ms, 0498ms total)
T20B8 001:064 JLINK_WriteReg(R4, 0x00000000)  returns 0x00 (0000ms, 0498ms total)
T20B8 001:064 JLINK_WriteReg(R5, 0x00000000)  returns 0x00 (0000ms, 0498ms total)
T20B8 001:064 JLINK_WriteReg(R6, 0x00000000)  returns 0x00 (0000ms, 0498ms total)
T20B8 001:064 JLINK_WriteReg(R7, 0x00000000)  returns 0x00 (0000ms, 0498ms total)
T20B8 001:064 JLINK_WriteReg(R8, 0x00000000)  returns 0x00 (0000ms, 0498ms total)
T20B8 001:064 JLINK_WriteReg(R9, 0x20000160)  returns 0x00 (0000ms, 0498ms total)
T20B8 001:064 JLINK_WriteReg(R10, 0x00000000)  returns 0x00 (0000ms, 0498ms total)
T20B8 001:064 JLINK_WriteReg(R11, 0x00000000)  returns 0x00 (0000ms, 0498ms total)
T20B8 001:064 JLINK_WriteReg(R12, 0x00000000)  returns 0x00 (0000ms, 0498ms total)
T20B8 001:064 JLINK_WriteReg(R13, 0x20000800)  returns 0x00 (0000ms, 0498ms total)
T20B8 001:064 JLINK_WriteReg(R14, 0x20000001)  returns 0x00 (0000ms, 0498ms total)
T20B8 001:064 JLINK_WriteReg(R15, 0x200000F4)  returns 0x00 (0000ms, 0498ms total)
T20B8 001:064 JLINK_WriteReg(XPSR, 0x01000000)  returns 0x00 (0000ms, 0498ms total)
T20B8 001:064 JLINK_WriteReg(MSP, 0x20000800)  returns 0x00 (0000ms, 0498ms total)
T20B8 001:064 JLINK_WriteReg(PSP, 0x20000800)  returns 0x00 (0000ms, 0498ms total)
T20B8 001:064 JLINK_WriteReg(CFBP, 0x00000000)  returns 0x00 (0000ms, 0498ms total)
T20B8 001:064 JLINK_SetBPEx(Addr = 0x20000000, Type = 0xFFFFFFF2)  returns 0x0000000B (0000ms, 0498ms total)
T20B8 001:064 JLINK_Go() (0003ms, 0501ms total)
T20B8 001:067 JLINK_IsHalted()  returns FALSE (0001ms, 0502ms total)
T20B8 001:079 JLINK_IsHalted()  returns FALSE (0001ms, 0502ms total)
T20B8 001:081 JLINK_IsHalted()  returns FALSE (0001ms, 0502ms total)
T20B8 001:083 JLINK_IsHalted()  returns FALSE (0001ms, 0502ms total)
T20B8 001:085 JLINK_IsHalted()  returns FALSE (0001ms, 0502ms total)
T20B8 001:093 JLINK_IsHalted()  returns FALSE (0001ms, 0502ms total)
T20B8 001:097 JLINK_IsHalted() -- CPU_ReadMem(2 bytes @ 0x20000000)  returns TRUE (0006ms, 0507ms total)
T20B8 001:103 JLINK_ReadReg(R15)  returns 0x20000000 (0000ms, 0501ms total)
T20B8 001:103 JLINK_ClrBPEx(BPHandle = 0x0000000B)  returns 0x00 (0000ms, 0501ms total)
T20B8 001:103 JLINK_ReadReg(R0)  returns 0x00000000 (0000ms, 0501ms total)
T20B8 001:103 JLINK_WriteMem(0x20000164, 0x0400 Bytes, ...) -- Data:  0F 49 C8 64 70 47 0B 49 C8 71 70 47 09 48 40 6A ... -- CPU_WriteMem(1024 bytes @ 0x20000164)  returns 0x400 (0007ms, 0508ms total)
T20B8 001:110 JLINK_WriteReg(R0, 0x08001C00)  returns 0x00 (0000ms, 0508ms total)
T20B8 001:110 JLINK_WriteReg(R1, 0x00000400)  returns 0x00 (0000ms, 0508ms total)
T20B8 001:110 JLINK_WriteReg(R2, 0x20000164)  returns 0x00 (0000ms, 0508ms total)
T20B8 001:110 JLINK_WriteReg(R3, 0x00000000)  returns 0x00 (0000ms, 0508ms total)
T20B8 001:110 JLINK_WriteReg(R4, 0x00000000)  returns 0x00 (0000ms, 0508ms total)
T20B8 001:110 JLINK_WriteReg(R5, 0x00000000)  returns 0x00 (0000ms, 0508ms total)
T20B8 001:110 JLINK_WriteReg(R6, 0x00000000)  returns 0x00 (0000ms, 0508ms total)
T20B8 001:110 JLINK_WriteReg(R7, 0x00000000)  returns 0x00 (0000ms, 0508ms total)
T20B8 001:110 JLINK_WriteReg(R8, 0x00000000)  returns 0x00 (0000ms, 0508ms total)
T20B8 001:110 JLINK_WriteReg(R9, 0x20000160)  returns 0x00 (0000ms, 0508ms total)
T20B8 001:110 JLINK_WriteReg(R10, 0x00000000)  returns 0x00 (0000ms, 0508ms total)
T20B8 001:110 JLINK_WriteReg(R11, 0x00000000)  returns 0x00 (0000ms, 0508ms total)
T20B8 001:110 JLINK_WriteReg(R12, 0x00000000)  returns 0x00 (0000ms, 0508ms total)
T20B8 001:110 JLINK_WriteReg(R13, 0x20000800)  returns 0x00 (0000ms, 0508ms total)
T20B8 001:110 JLINK_WriteReg(R14, 0x20000001)  returns 0x00 (0000ms, 0508ms total)
T20B8 001:110 JLINK_WriteReg(R15, 0x200000F4)  returns 0x00 (0000ms, 0508ms total)
T20B8 001:110 JLINK_WriteReg(XPSR, 0x01000000)  returns 0x00 (0000ms, 0508ms total)
T20B8 001:110 JLINK_WriteReg(MSP, 0x20000800)  returns 0x00 (0000ms, 0508ms total)
T20B8 001:110 JLINK_WriteReg(PSP, 0x20000800)  returns 0x00 (0000ms, 0508ms total)
T20B8 001:110 JLINK_WriteReg(CFBP, 0x00000000)  returns 0x00 (0000ms, 0508ms total)
T20B8 001:110 JLINK_SetBPEx(Addr = 0x20000000, Type = 0xFFFFFFF2)  returns 0x0000000C (0000ms, 0508ms total)
T20B8 001:110 JLINK_Go() (0003ms, 0511ms total)
T20B8 001:113 JLINK_IsHalted()  returns FALSE (0001ms, 0512ms total)
T20B8 001:117 JLINK_IsHalted()  returns FALSE (0001ms, 0512ms total)
T20B8 001:125 JLINK_IsHalted()  returns FALSE (0001ms, 0512ms total)
T20B8 001:127 JLINK_IsHalted()  returns FALSE (0001ms, 0512ms total)
T20B8 001:129 JLINK_IsHalted()  returns FALSE (0001ms, 0512ms total)
T20B8 001:131 JLINK_IsHalted()  returns FALSE (0001ms, 0512ms total)
T20B8 001:133 JLINK_IsHalted()  returns FALSE (0001ms, 0512ms total)
T20B8 001:139 JLINK_IsHalted()  returns FALSE (0001ms, 0512ms total)
T20B8 001:141 JLINK_IsHalted()  returns FALSE (0001ms, 0512ms total)
T20B8 001:143 JLINK_IsHalted()  returns FALSE (0001ms, 0512ms total)
T20B8 001:145 JLINK_IsHalted() -- CPU_ReadMem(2 bytes @ 0x20000000)  returns TRUE (0006ms, 0517ms total)
T20B8 001:151 JLINK_ReadReg(R15)  returns 0x20000000 (0000ms, 0511ms total)
T20B8 001:151 JLINK_ClrBPEx(BPHandle = 0x0000000C)  returns 0x00 (0000ms, 0511ms total)
T20B8 001:151 JLINK_ReadReg(R0)  returns 0x00000000 (0000ms, 0511ms total)
T20B8 001:151 JLINK_WriteMem(0x20000164, 0x0400 Bytes, ...) -- Data:  06 FA 03 F3 01 2D 02 D1 96 89 33 40 06 E0 02 2D ... -- CPU_WriteMem(1024 bytes @ 0x20000164)  returns 0x400 (0007ms, 0518ms total)
T20B8 001:158 JLINK_WriteReg(R0, 0x08002000)  returns 0x00 (0000ms, 0518ms total)
T20B8 001:158 JLINK_WriteReg(R1, 0x00000400)  returns 0x00 (0000ms, 0518ms total)
T20B8 001:158 JLINK_WriteReg(R2, 0x20000164)  returns 0x00 (0000ms, 0518ms total)
T20B8 001:158 JLINK_WriteReg(R3, 0x00000000)  returns 0x00 (0000ms, 0518ms total)
T20B8 001:158 JLINK_WriteReg(R4, 0x00000000)  returns 0x00 (0000ms, 0518ms total)
T20B8 001:158 JLINK_WriteReg(R5, 0x00000000)  returns 0x00 (0000ms, 0518ms total)
T20B8 001:158 JLINK_WriteReg(R6, 0x00000000)  returns 0x00 (0000ms, 0518ms total)
T20B8 001:158 JLINK_WriteReg(R7, 0x00000000)  returns 0x00 (0000ms, 0518ms total)
T20B8 001:158 JLINK_WriteReg(R8, 0x00000000)  returns 0x00 (0000ms, 0518ms total)
T20B8 001:158 JLINK_WriteReg(R9, 0x20000160)  returns 0x00 (0000ms, 0518ms total)
T20B8 001:158 JLINK_WriteReg(R10, 0x00000000)  returns 0x00 (0000ms, 0518ms total)
T20B8 001:158 JLINK_WriteReg(R11, 0x00000000)  returns 0x00 (0000ms, 0518ms total)
T20B8 001:158 JLINK_WriteReg(R12, 0x00000000)  returns 0x00 (0000ms, 0518ms total)
T20B8 001:158 JLINK_WriteReg(R13, 0x20000800)  returns 0x00 (0000ms, 0518ms total)
T20B8 001:158 JLINK_WriteReg(R14, 0x20000001)  returns 0x00 (0000ms, 0518ms total)
T20B8 001:158 JLINK_WriteReg(R15, 0x200000F4)  returns 0x00 (0000ms, 0518ms total)
T20B8 001:158 JLINK_WriteReg(XPSR, 0x01000000)  returns 0x00 (0000ms, 0518ms total)
T20B8 001:158 JLINK_WriteReg(MSP, 0x20000800)  returns 0x00 (0000ms, 0518ms total)
T20B8 001:158 JLINK_WriteReg(PSP, 0x20000800)  returns 0x00 (0000ms, 0518ms total)
T20B8 001:158 JLINK_WriteReg(CFBP, 0x00000000)  returns 0x00 (0000ms, 0518ms total)
T20B8 001:158 JLINK_SetBPEx(Addr = 0x20000000, Type = 0xFFFFFFF2)  returns 0x0000000D (0000ms, 0518ms total)
T20B8 001:158 JLINK_Go() (0003ms, 0521ms total)
T20B8 001:161 JLINK_IsHalted()  returns FALSE (0001ms, 0522ms total)
T20B8 001:175 JLINK_IsHalted()  returns FALSE (0001ms, 0522ms total)
T20B8 001:177 JLINK_IsHalted()  returns FALSE (0001ms, 0522ms total)
T20B8 001:179 JLINK_IsHalted()  returns FALSE (0001ms, 0522ms total)
T20B8 001:185 JLINK_IsHalted()  returns FALSE (0001ms, 0522ms total)
T20B8 001:187 JLINK_IsHalted()  returns FALSE (0000ms, 0521ms total)
T20B8 001:188 JLINK_IsHalted()  returns FALSE (0004ms, 0525ms total)
T20B8 001:193 JLINK_IsHalted() -- CPU_ReadMem(2 bytes @ 0x20000000)  returns TRUE (0006ms, 0527ms total)
T20B8 001:199 JLINK_ReadReg(R15)  returns 0x20000000 (0000ms, 0521ms total)
T20B8 001:199 JLINK_ClrBPEx(BPHandle = 0x0000000D)  returns 0x00 (0000ms, 0521ms total)
T20B8 001:199 JLINK_ReadReg(R0)  returns 0x00000000 (0000ms, 0521ms total)
T20B8 001:199 JLINK_WriteMem(0x20000164, 0x0400 Bytes, ...) -- Data:  11 43 70 47 00 20 01 46 70 47 30 B5 0B 46 01 46 ... -- CPU_WriteMem(1024 bytes @ 0x20000164)  returns 0x400 (0007ms, 0528ms total)
T20B8 001:206 JLINK_WriteReg(R0, 0x08002400)  returns 0x00 (0000ms, 0528ms total)
T20B8 001:206 JLINK_WriteReg(R1, 0x00000400)  returns 0x00 (0000ms, 0528ms total)
T20B8 001:206 JLINK_WriteReg(R2, 0x20000164)  returns 0x00 (0000ms, 0528ms total)
T20B8 001:206 JLINK_WriteReg(R3, 0x00000000)  returns 0x00 (0000ms, 0528ms total)
T20B8 001:206 JLINK_WriteReg(R4, 0x00000000)  returns 0x00 (0000ms, 0528ms total)
T20B8 001:206 JLINK_WriteReg(R5, 0x00000000)  returns 0x00 (0000ms, 0528ms total)
T20B8 001:206 JLINK_WriteReg(R6, 0x00000000)  returns 0x00 (0000ms, 0528ms total)
T20B8 001:206 JLINK_WriteReg(R7, 0x00000000)  returns 0x00 (0000ms, 0528ms total)
T20B8 001:206 JLINK_WriteReg(R8, 0x00000000)  returns 0x00 (0000ms, 0528ms total)
T20B8 001:206 JLINK_WriteReg(R9, 0x20000160)  returns 0x00 (0000ms, 0528ms total)
T20B8 001:206 JLINK_WriteReg(R10, 0x00000000)  returns 0x00 (0000ms, 0528ms total)
T20B8 001:206 JLINK_WriteReg(R11, 0x00000000)  returns 0x00 (0000ms, 0528ms total)
T20B8 001:206 JLINK_WriteReg(R12, 0x00000000)  returns 0x00 (0000ms, 0528ms total)
T20B8 001:206 JLINK_WriteReg(R13, 0x20000800)  returns 0x00 (0000ms, 0528ms total)
T20B8 001:206 JLINK_WriteReg(R14, 0x20000001)  returns 0x00 (0000ms, 0528ms total)
T20B8 001:206 JLINK_WriteReg(R15, 0x200000F4)  returns 0x00 (0000ms, 0528ms total)
T20B8 001:206 JLINK_WriteReg(XPSR, 0x01000000)  returns 0x00 (0000ms, 0528ms total)
T20B8 001:206 JLINK_WriteReg(MSP, 0x20000800)  returns 0x00 (0000ms, 0528ms total)
T20B8 001:206 JLINK_WriteReg(PSP, 0x20000800)  returns 0x00 (0000ms, 0528ms total)
T20B8 001:206 JLINK_WriteReg(CFBP, 0x00000000)  returns 0x00 (0000ms, 0528ms total)
T20B8 001:206 JLINK_SetBPEx(Addr = 0x20000000, Type = 0xFFFFFFF2)  returns 0x0000000E (0000ms, 0528ms total)
T20B8 001:206 JLINK_Go() (0003ms, 0531ms total)
T20B8 001:209 JLINK_IsHalted()  returns FALSE (0001ms, 0532ms total)
T20B8 001:215 JLINK_IsHalted()  returns FALSE (0001ms, 0532ms total)
T20B8 001:217 JLINK_IsHalted()  returns FALSE (0001ms, 0532ms total)
T20B8 001:219 JLINK_IsHalted()  returns FALSE (0001ms, 0532ms total)
T20B8 001:221 JLINK_IsHalted()  returns FALSE (0001ms, 0532ms total)
T20B8 001:223 JLINK_IsHalted()  returns FALSE (0001ms, 0532ms total)
T20B8 001:225 JLINK_IsHalted()  returns FALSE (0001ms, 0532ms total)
T20B8 001:227 JLINK_IsHalted()  returns FALSE (0001ms, 0532ms total)
T20B8 001:235 JLINK_IsHalted()  returns FALSE (0001ms, 0532ms total)
T20B8 001:237 JLINK_IsHalted()  returns FALSE (0001ms, 0532ms total)
T20B8 001:239 JLINK_IsHalted()  returns FALSE (0001ms, 0532ms total)
T20B8 001:241 JLINK_IsHalted() -- CPU_ReadMem(2 bytes @ 0x20000000)  returns TRUE (0006ms, 0537ms total)
T20B8 001:247 JLINK_ReadReg(R15)  returns 0x20000000 (0000ms, 0531ms total)
T20B8 001:247 JLINK_ClrBPEx(BPHandle = 0x0000000E)  returns 0x00 (0000ms, 0531ms total)
T20B8 001:247 JLINK_ReadReg(R0)  returns 0x00000000 (0000ms, 0531ms total)
T20B8 001:247 JLINK_WriteMem(0x20000164, 0x0400 Bytes, ...) -- Data:  4C EB 08 51 10 EB 0A 00 41 EB 0B 01 BD E8 F0 4D ... -- CPU_WriteMem(1024 bytes @ 0x20000164)  returns 0x400 (0007ms, 0538ms total)
T20B8 001:254 JLINK_WriteReg(R0, 0x08002800)  returns 0x00 (0000ms, 0538ms total)
T20B8 001:254 JLINK_WriteReg(R1, 0x00000400)  returns 0x00 (0000ms, 0538ms total)
T20B8 001:254 JLINK_WriteReg(R2, 0x20000164)  returns 0x00 (0000ms, 0538ms total)
T20B8 001:254 JLINK_WriteReg(R3, 0x00000000)  returns 0x00 (0000ms, 0538ms total)
T20B8 001:254 JLINK_WriteReg(R4, 0x00000000)  returns 0x00 (0000ms, 0538ms total)
T20B8 001:254 JLINK_WriteReg(R5, 0x00000000)  returns 0x00 (0000ms, 0538ms total)
T20B8 001:254 JLINK_WriteReg(R6, 0x00000000)  returns 0x00 (0000ms, 0538ms total)
T20B8 001:254 JLINK_WriteReg(R7, 0x00000000)  returns 0x00 (0000ms, 0538ms total)
T20B8 001:254 JLINK_WriteReg(R8, 0x00000000)  returns 0x00 (0000ms, 0538ms total)
T20B8 001:254 JLINK_WriteReg(R9, 0x20000160)  returns 0x00 (0000ms, 0538ms total)
T20B8 001:254 JLINK_WriteReg(R10, 0x00000000)  returns 0x00 (0000ms, 0538ms total)
T20B8 001:254 JLINK_WriteReg(R11, 0x00000000)  returns 0x00 (0000ms, 0538ms total)
T20B8 001:254 JLINK_WriteReg(R12, 0x00000000)  returns 0x00 (0000ms, 0538ms total)
T20B8 001:254 JLINK_WriteReg(R13, 0x20000800)  returns 0x00 (0000ms, 0538ms total)
T20B8 001:254 JLINK_WriteReg(R14, 0x20000001)  returns 0x00 (0000ms, 0538ms total)
T20B8 001:254 JLINK_WriteReg(R15, 0x200000F4)  returns 0x00 (0000ms, 0538ms total)
T20B8 001:254 JLINK_WriteReg(XPSR, 0x01000000)  returns 0x00 (0000ms, 0538ms total)
T20B8 001:254 JLINK_WriteReg(MSP, 0x20000800)  returns 0x00 (0000ms, 0538ms total)
T20B8 001:254 JLINK_WriteReg(PSP, 0x20000800)  returns 0x00 (0000ms, 0538ms total)
T20B8 001:254 JLINK_WriteReg(CFBP, 0x00000000)  returns 0x00 (0000ms, 0538ms total)
T20B8 001:254 JLINK_SetBPEx(Addr = 0x20000000, Type = 0xFFFFFFF2)  returns 0x0000000F (0000ms, 0538ms total)
T20B8 001:254 JLINK_Go() (0003ms, 0541ms total)
T20B8 001:257 JLINK_IsHalted()  returns FALSE (0001ms, 0542ms total)
T20B8 001:265 JLINK_IsHalted()  returns FALSE (0001ms, 0542ms total)
T20B8 001:267 JLINK_IsHalted()  returns FALSE (0001ms, 0542ms total)
T20B8 001:269 JLINK_IsHalted()  returns FALSE (0001ms, 0542ms total)
T20B8 001:271 JLINK_IsHalted()  returns FALSE (0001ms, 0542ms total)
T20B8 001:273 JLINK_IsHalted()  returns FALSE (0001ms, 0542ms total)
T20B8 001:285 JLINK_IsHalted()  returns FALSE (0001ms, 0542ms total)
T20B8 001:287 JLINK_IsHalted()  returns FALSE (0001ms, 0542ms total)
T20B8 001:289 JLINK_IsHalted() -- CPU_ReadMem(2 bytes @ 0x20000000)  returns TRUE (0006ms, 0547ms total)
T20B8 001:295 JLINK_ReadReg(R15)  returns 0x20000000 (0000ms, 0541ms total)
T20B8 001:295 JLINK_ClrBPEx(BPHandle = 0x0000000F)  returns 0x00 (0000ms, 0541ms total)
T20B8 001:295 JLINK_ReadReg(R0)  returns 0x00000000 (0000ms, 0541ms total)
